;这是SSCOM的设置保存文件,您在程序中设置好的串口参数和字符串数据都会自动保存,请最好不要用外部编辑器改动本文件!
;如果文件被修改后程序不能打开,请删除本文件,程序将会自动生成一个新的ini文件.
;靠行首的半角分号是注释符号
;每行都以回车结束

;当前串口号Port
N80=,COM43
;波特率Band rate
N81=,115200
;数据位Data bits
N82=,8
;停止位Stop bits
N83=,1
;校验位Parity
;N84=,无法保存,请打开软件后重新设置
;流控Flow control
;N85=,无法保存,请打开软件后重新设置

;"="后面的H表示这是个HEX数据串
;"="后面的A表示这是个ASC字符串
;Nx表示第几条定义的字符串(1<x<32)
N1=H,01 05 00 30 FF 00 8C 35
N2=H,01 05 00 19 FF 00 5D FD
N3=H,01 05 00 19 FF 00 78 12
N4=H,01 05 00 1C FF 00 4D FC
N5=H,01 02 00 40 00 10 78 12
N6=H,01 05 00 1C 00 00 0C 0C
N7=H,
N8=H,01 05 00 1a 00 00 ec 0d 
N9=H,01 10 91 02 00 10 20 00 01 00 30 00 00 4a 38 00 30 00 30 00 00 00 00 00 14 00 64 00 00 00 00 00 00 00 00 00 00 00 64 72 51
N10=H,01 10 91 00 00 01 02 01 00 27 09
N11=H,01 10 91 02 00 10 20 00 01 00 30 00 00 00 0a 00 30 00 30 00 00 00 00 00 14 00 64 00 00 00 00 00 00 00 00 00 00 00 64 4a e2
N12=H,01 05 00 18 ff 00 0c 3d
N13=H,01 05 00 18 00 00 4d cd
N14=H,01 0f 00 10 00 08 01 02 be 97
N15=H,01 05 00 1A FF 00 AD FD
N16=H,01 0f 00 10 00 08 01 03 7f 57
N17=H,01 05 00 1b ff 00 fc 3d
N18=H,01 05 00 1b 00 00 bd cd
N19=H,02 05 00 30 FF 00 8c 06
N20=H,02 05 00 19 FF 00 5D ce
N21=H,02 02 00 40 00 10 78 21
N22=H,02 05 00 1C FF 00 4D cf
N23=H,02 02 00 40 00 10 78 21
N24=H,02 05 00 1c 00 00 0c 3f
N25=H,
N26=H,02 10 91 02 00 10 20 00 01 00 0c 00 00 11 94 00 30 00 30 00 00 00 00 00 14 00 64 00 00 00 00 00 00 00 00 00 00 00 64 92 d9
N27=H,02 10 91 00 00 01 02 01 00 33 f9
N28=H,02 10 91 02 00 10 20 00 01 00 0c 00 00 00 2d 00 30 00 30 00 00 00 00 00 14 00 64 00 00 00 00 00 00 00 00 00 00 00 64 50 7f
N29=H,
N30=H,
N31=A,
N32=A,

;主面板ASC字符串
N33=,#UPDATE
;主面板HEX数据串
N34=,A5 21
;主面板发送方式(ASC or HEX)
N35=,A
;主面板字符串发送间隔时间
N36=,2000
;主面板字符串发送新行
N37=,N
;多条字符串发送间隔时间
N38=,100
;end